 ******  HSPICE  Y-2006.03       (20060222) 23:43:42  09/05/2006  linux        
  Copyright (C) 2006 Synopsys, Inc. All Rights Reserved.                       
  Unpublished-rights reserved under US copyright laws.
  This program is protected by law and is subject to the 
  terms and conditions of the license agreement found in:
    /software/hspice06.03/license.txt
  Use of this program is your acceptance to be bound by this 
  license agreement. HSPICE is the trademark of Synopsys, Inc.
  Input File: /users/micas/tmcconag/svnlocal/synth/temp/autogen_simfiles/autogen
 lic:  
 lic: FLEXlm: v8.4b 
 lic: USER:   tmcconag             HOSTNAME: bushmills 
 lic: HOSTID: 0050040f2e24         PID:      3740 
 lic: Using FLEXlm license file: 
 lic: /software/hspice06.03/license.dat 
 lic: Checkout hspice;  Encryption code: 0D74CCEEC841523CC55D 
 lic: License/Maintenance for hspice will expire on 31-dec-2006/2006.06 
 lic: 1(in_use)/20 FLOATING license(s) on SERVER nijl 
 lic:   
 Init: read install configuration file: /software/hspice06.03/meta.cfg
 Init: hspice initialization file: /software/hspice06.03/hspice.ini
 * reading file:  /software/hspice06.03/hspice.ini
 *spice netlist, auto-generated by createfullnetlist()
  
 *------env and rnd variables---------
  
 .param pcload = 5.000e-12
 .param pvdd = 3.000e+00
 .param pvdcin = 9.000e-01
 .param prfb = 1.000e+09
 .param pvout = 9.000e-01
 .param pcfb = 1.000e-03
  
 *------design---------
 m0 n_auto_13 n_auto_18 n_auto_17 n_auto_17 p_18_mm l=2.27671e-07 w=1.64719e-05
 v1 n_auto_18 0  dc 0.636091
 m2 n_auto_17 ninp n_auto_16 n_auto_16 n_18_mm l=9.87589e-07 w=1.24718e-05
 r3 n_auto_16 gnd  r=61335
 m4 n_auto_17 n_auto_19 n_auto_15 n_auto_15 p_18_mm l=2.66938e-07 w=1.16001e-05
 v5 n_auto_19 0  dc 0.567028
 m6 n_auto_14 n_auto_22 n_auto_21 n_auto_21 p_18_mm l=2.27671e-07 w=1.64719e-05
 v7 n_auto_22 0  dc 0.636091
 m8 n_auto_21 ninn n_auto_20 n_auto_20 n_18_mm l=9.87589e-07 w=1.24718e-05
 r9 n_auto_20 gnd  r=61335
 m10 n_auto_21 n_auto_23 n_auto_15 n_auto_15 p_18_mm l=2.66938e-07 w=1.16001e-05
 v11 n_auto_23 0  dc 0.567028
 rwire12 n_auto_15 ndd  r=0
 m13 n_auto_13 n_auto_13 gnd gnd n_18_mm l=9.28369e-07 w=1.65389e-05
 m14 n_auto_14 n_auto_13 gnd gnd n_18_mm l=9.28369e-07 w=1.8e-05
 rwire15 n_auto_14 nout  r=0
  
  
 *------test fixture---------
  
 cload  nout    gnd     pcload

 * biasing circuitry
  
 vdd            ndd             gnd     dc=pvdd
 vindc          ninpdc          gnd     dc=pvdcin
 vinac          ninpdc          ninp    ac=1 sin(0 1 10k)

 * feedback loop for dc biasing of output stage
  
 vout   nfbinn  gnd     pvout
 efb1   nfbin   gnd     nout    nfbinn  1.0e2
 rfb    nfbin   nfbout  prfb
 cfb    nfbout  gnd     pcfb
 efb2   ninpdc  ninn    nfbout  gnd     1.0

 * simulation statements
  
 .op
 .ac    dec     50      0.0e0   10.0e9

 * frequency-domain measurements
 .measure ac ampl       max vdb(nout) at=0
 .measure ac inampl max vdb(ninp,ninn) at=0
 .measure ac gain param='ampl-inampl'
 .measure ac phase find vp(nout) when vdb(nout)=0 cross=1
 .measure ac phasemargin param='phase+180'
 .measure ac gbw when vdb(nout)=0 cross=1
  
 .measure ac pole1 when vp(nout)=-45 cross=1
 .measure ac pole2 when vp(nout)=-135 cross=1

 * power measurement
 epwr1 pwrnode gnd volts='-pvdd*i(vdd)'


  
  
 *------simulator options---------
  
 .include /users/micas/tmcconag/svnlocal/synth/problems/miller2/simulator_options.inc
 * simulator options
  
 *.option post list
 .option post=2
 .option ingold=2
 .option lvltim=2
 .option method=gear
 .option absmos=1e-7 relmos=1e-4
 .option reli=1e-4 absi=1e-7
 .option relv=1e-4 absv=1e-7
 .option relq=0.005
 .option acout=0       * belang voor ac simul; vdb e.d zie ac simul
 .option nopage        * geen pagebreaks
 .option itl1=5000 itl2=5000
 .option probe
 .option interp
 .option dcon=1
  
  
 *------models---------
  
 .include /users/micas/tmcconag/svnlocal/synth/problems/miller2/models.inc

 **warning** associated with encrypted blocks were suppressed due to encrypted content


 **warning** associated with encrypted blocks were suppressed due to encrypted content

  
  
 .end

 **warning** the start sweep value for dec format can not be zero.
             it is set to 1e-6*(final sweep value)=   1.0000E+04


 **warning**     0:rwire12         defined in subckt 0                resistance limited to   1.000E-05

 **warning**     0:rwire15         defined in subckt 0                resistance limited to   1.000E-05

 


 **warning** the following singular supplies were terminated to 1 meg resistor 
   supply       node1            node2
  epwr1                   0:pwrnode          defined in subckt 0                     0:0                defined in subckt 0               

 **diagnostic** dc convergence failure, 
 resetting dcon option to 2 and retrying.

 no convergence with standard algorithm,  trying damped pseudo-transient

 **warning** negative-mos conductance =     0:m8 iter=    2
 vds,vgs,vbs =      7.431E-07      3.83        -7.216E-10
  gm,gds,gmbs,ids=    -2.324E-10     5.811E-03     5.028E-10     4.319E-09
  *** initial damped pseudo transient completed. ***
  *** final try started ***

 **warning** This was a difficult operating point.
             You can speed up your simulation by specifying:
             .OPTION CONVERGE=1 

 ******  HSPICE  Y-2006.03       (20060222) 23:43:42  09/05/2006  linux        
 ******  
                                                                               
  ******  operating point information      tnom=  25.000 temp=  25.000         
 ******  
 ***** operating point status is all       simulation time is     0.     
    node    =voltage      node    =voltage      node    =voltage

 +0:n_auto_1= 1.374e+00 0:n_auto_1= 7.670e-01 0:n_auto_1= 3.000e+00
 +0:n_auto_1= 4.942e-01 0:n_auto_1= 2.220e+00 0:n_auto_1= 6.361e-01
 +0:n_auto_1= 5.670e-01 0:n_auto_2= 2.149e+00 0:n_auto_2= 2.163e+00
 +0:n_auto_2= 6.361e-01 0:n_auto_2= 5.670e-01 0:ndd     = 3.000e+00
 +0:nfbin   =-1.330e+01 0:nfbinn  = 9.000e-01 0:nfbout  =-1.330e+01
 +0:ninn    = 1.420e+01 0:ninp    = 9.000e-01 0:ninpdc  = 9.000e-01
 +0:nout    = 7.670e-01 0:pwrnode = 1.189e-02


 ****  voltage sources

 subckt                                                                    
 element  0:v1       0:v5       0:v7       0:v11      0:vdd      0:vindc   
  volts    6.361e-01  5.670e-01  6.361e-01  5.670e-01  3.000e+00  9.000e-01
  current    0.         0.         0.         0.      -3.962e-03    0.     
  power      0.         0.         0.         0.       1.189e-02    0.     

 subckt                        
 element  0:vinac    0:vout    
  volts      0.       9.000e-01
  current    0.         0.     
  power      0.         0.     


     total voltage source power dissipation=  1.189e-02       watts

 **** resistors

 subckt                                                         
 element  0:r3       0:r9       0:rwire12  0:rwire15  0:rfb     
  r value  6.133e+04  6.133e+04  1.000e-05  1.000e-05  1.000e+09
  v drop   4.942e-01  2.149e+00 -3.962e-08    0.         0.     
  current  8.057e-06  3.505e-05 -3.962e-03    0.         0.     
  power    3.981e-06  7.536e-05  1.570e-10    0.         0.     


 **** voltage-controlled voltage sources


 subckt                                   
 element  0:efb1     0:efb2     0:epwr1   
  volts   -1.330e+01 -1.330e+01  1.189e-02
  current    0.         0.      -1.189e-08





 **** mosfets


 subckt                                                                    
 element  0:m0       0:m2       0:m4       0:m6       0:m8       0:m10     
 model    0:p_18_mm  0:n_18_mm  0:p_18_mm  0:p_18_mm  0:n_18_mm  0:p_18_mm 
 region       Linear   Saturati     Linear   Saturati     Linear     Linear
  id      -1.927e-03  8.057e-06 -1.935e-03 -1.992e-03  3.505e-05 -2.027e-03
  ibs      1.818e-19 -1.280e-21  1.869e-19  1.880e-19 -5.567e-21  1.959e-19
  ibd      6.320e-16 -1.644e-15  4.197e-16  1.043e-15 -1.262e-17  4.507e-16
  vgs     -1.584e+00  4.058e-01 -2.433e+00 -1.527e+00  1.205e+01 -2.433e+00
  vds     -8.461e-01  1.726e+00 -7.792e-01 -1.396e+00  1.325e-02 -8.368e-01
  vbs        0.         0.         0.         0.         0.         0.     
  vth     -5.238e-01  3.772e-01 -5.216e-01 -5.236e-01  3.903e-01 -5.216e-01
  vdsat   -8.534e-01  7.620e-02 -1.430e+00 -8.164e-01  5.038e+01 -1.430e+00
  vod     -1.060e+00  2.862e-02 -1.911e+00 -1.003e+00  1.166e+01 -1.911e+00
  beta     4.992e-03  3.800e-03  2.302e-03  5.051e-03  2.273e-04  2.302e-03
  gam eff  5.571e-01  5.074e-01  5.571e-01  5.571e-01  5.074e-01  5.571e-01
  gm       2.217e-03  1.546e-04  8.139e-04  2.704e-03    0.       8.810e-04
  gds      7.145e-04  1.593e-06  1.662e-03  2.192e-04  2.646e-03  1.551e-03
  gmb      8.226e-04  3.118e-05  4.357e-04  9.556e-04  1.598e-06  4.613e-04
  cdtot    2.160e-14  1.450e-14  2.801e-14  1.932e-14  1.360e-13  2.630e-14
  cgtot    3.154e-14  7.132e-14  2.707e-14  3.133e-14  1.043e-13  2.680e-14
  cstot    4.665e-14  7.666e-14  3.690e-14  4.661e-14  1.165e-13  3.666e-14
  cbtot    4.083e-14  4.457e-14  2.983e-14  3.927e-14  5.173e-14  2.963e-14
  cgs      2.398e-14  5.650e-14  1.737e-14  2.401e-14  5.079e-14  1.767e-14
  cgd      6.216e-15  4.520e-15  9.351e-15  5.915e-15  5.144e-14  8.735e-15



 subckt                        
 element  0:m13     
 model    0:n_18_mm 
 region     Saturati     Linear
  id       1.927e-03  1.992e-03
  ibs     -3.002e-19 -3.090e-19
  ibd     -1.703e-15 -1.029e-15
  vgs      1.374e+00  1.374e+00
  vds      1.374e+00  7.670e-01
  vbs        0.         0.     
  vth      3.836e-01  3.883e-01
  vdsat    7.422e-01  7.395e-01
  vod      9.911e-01  9.863e-01
  beta     5.064e-03  5.507e-03
  gam eff  5.075e-01  5.075e-01
  gm       3.348e-03  3.224e-03
  gds      7.504e-05  4.806e-04
  gmb      6.884e-04  6.882e-04
  cdtot    2.009e-14  2.898e-14
  cgtot    1.070e-13  1.180e-13
  cstot    1.213e-13  1.326e-13
  cbtot    5.455e-14  6.137e-14
  cgs      9.598e-14  1.041e-13
  cgd      5.925e-15  8.563e-15



  Opening plot unit= 15
 file=autogen_cirfile.ac0                                                      

 ******  
                                                                               
  ******  ac analysis                      tnom=  25.000 temp=  25.000         
 ******  
   ampl= -3.6674E+01    at=  1.0000E+04
               from=  1.0000E+04    to=  1.0000E+10
   inampl=  0.0000E+00    at=  2.7542E+08
               from=  1.0000E+04    to=  1.0000E+10
   gain= -3.6674E+01
   phase= failed
   phasemargin= failed                         measure parameter failed
   gbw= failed
   pole1=  1.9958E+09
   pole2= failed

          ***** job concluded
 ******  HSPICE  Y-2006.03       (20060222) 23:43:42  09/05/2006  linux        
 ******  
                                                                               
  ******  job statistics summary           tnom=  25.000 temp=  25.000         
 ******  

           total memory used        192 kbytes

  # nodes =    37 # elements=    27
  # diodes=     0 # bjts    =     0 # jfets   =     0 # mosfets =     8 # va device =     0

     analysis      time      # points  tot. iter  conv.iter

     op point          0.04         1       401
     ac analysis       0.03       301       301
     readin            0.04
     errchk            0.01
     setup             0.00
     output            0.00
           total cpu time          0.11 seconds
               job started at  23:43:42  09/05/2006
               job ended   at  23:43:43  09/05/2006


 lic: Release hspice token(s) 
